
T3884 000:285 SEGGER J-Link V4.96d Log File (0001ms, 0262ms total)
T3884 000:285 DLL Compiled: Jan 29 2015 11:45:37 (0001ms, 0262ms total)
T3884 000:285 Logging started @ 2021-03-09 16:10 (0001ms, 0262ms total)
T3884 000:286 JLINK_SetWarnOutHandler(...) (0000ms, 0262ms total)
T3884 000:286 JLINK_OpenEx(...)
Firmware: J-Link ARM-OB STM32 compiled Aug 22 2012 19:52:04
Hardware: V7.00
S/N: 20090928
Feature(s): RDI,FlashDL,FlashBP,JFlash,GDBFull  returns O.K. (0263ms, 0525ms total)
T3884 000:549 JLINK_SetErrorOutHandler(...) (0000ms, 0525ms total)
T3884 000:549 JLINK_ExecCommand("ProjectFile = "F:\毕业设计\代码\电赛程序A_心电\USER\JLinkSettings.ini"", ...)  returns 0x00 (0000ms, 0525ms total)
T3884 000:549 JLINK_ExecCommand("Device = STM32F103C8", ...)Device "STM32F103C8" selected.  returns 0x00 (0001ms, 0526ms total)
T3884 000:550 JLINK_ExecCommand("DisableConnectionTimeout", ...)  returns 0x01 (0000ms, 0526ms total)
T3884 000:550 JLINK_GetHardwareVersion()  returns 0x11170 (0000ms, 0526ms total)
T3884 000:550 JLINK_GetDLLVersion()  returns 49604 (0000ms, 0526ms total)
T3884 000:550 JLINK_GetFirmwareString(...) (0000ms, 0526ms total)
T3884 000:550 JLINK_GetDLLVersion()  returns 49604 (0000ms, 0526ms total)
T3884 000:550 JLINK_GetCompileDateTime() (0000ms, 0526ms total)
T3884 000:550 JLINK_GetFirmwareString(...) (0000ms, 0526ms total)
T3884 000:550 JLINK_GetHardwareVersion()  returns 0x11170 (0000ms, 0526ms total)
T3884 000:551 JLINK_TIF_Select(JLINKARM_TIF_SWD)  returns 0x00 (0001ms, 0527ms total)
T3884 000:552 JLINK_SetSpeed(20000) (0001ms, 0528ms total)
T3884 000:553 JLINK_GetId() >0x108 TIF>Found SWD-DP with ID 0x1BA01477 >0x0D TIF> >0x28 TIF> >0x0D TIF> >0x28 TIF> >0x0D TIF> >0x21 TIF> >0x0D TIF> >0x28 TIF> >0x0D TIF> >0x28 TIF> >0x0D TIF> >0x28 TIF> >0x0D TIF> >0x21 TIF> >0x0D TIF> >0x21 TIF> >0x0D TIF> >0x28 TIF> >0x0D TIF> >0x21 TIF> >0x0D TIF> >0x21 TIF> >0x0D TIF> >0x28 TIF> >0x0D TIF> >0x28 TIF> >0x108 TIF>Found SWD-DP with ID 0x1BA01477 >0x0D TIF> >0x21 TIF> >0x0D TIF> >0x28 TIF> >0x0D TIF> >0x28 TIF> >0x0D TIF> >0x21 TIF> >0x0D TIF> >0x28 TIF>
 >0x0D TIF> >0x21 TIF> >0x0D TIF> >0x21 TIF> >0x0D TIF> >0x21 TIF> >0x0D TIF> >0x21 TIF> >0x0D TIF> >0x28 TIF> >0x0D TIF> >0x28 TIF> >0x0D TIF> >0x21 TIF> >0x0D TIF> >0x28 TIF> >0x0D TIF> >0x28 TIF> >0x0D TIF> >0x28 TIF> >0x0D TIF> >0x21 TIF> >0x0D TIF> >0x21 TIF> >0x0D TIF> >0x28 TIF> >0x0D TIF> >0x21 TIF> >0x0D TIF> >0x21 TIF>Found Cortex-M3 r1p1, Little endian. -- CPU_WriteMem(4 bytes @ 0xE0002000) -- CPU_ReadMem(4 bytes @ 0xE000EDF0) -- CPU_WriteMem(4 bytes @ 0xE000EDF0)
 -- CPU_ReadMem(4 bytes @ 0xE0002000)FPUnit: 6 code (BP) slots and 2 literal slots -- CPU_ReadMem(4 bytes @ 0xE000EDFC) -- CPU_WriteMem(4 bytes @ 0xE000EDFC) -- CPU_ReadMem(4 bytes @ 0xE0001000) -- CPU_WriteMem(4 bytes @ 0xE0001000) -- CPU_ReadMem(4 bytes @ 0xE000ED88) -- CPU_WriteMem(4 bytes @ 0xE000ED88) -- CPU_ReadMem(4 bytes @ 0xE000ED88) -- CPU_WriteMem(4 bytes @ 0xE000ED88) -- CPU_ReadMem(4 bytes @ 0xE00FF010)TPIU fitted. -- CPU_ReadMem(4 bytes @ 0xE00FF014) -- CPU_ReadMem(4 bytes @ 0xE00FF018)
 >0x0D TIF> >0x21 TIF>  returns 0x1BA01477 (0027ms, 0555ms total)
T3884 000:580 JLINK_GetDLLVersion()  returns 49604 (0000ms, 0555ms total)
T3884 000:580 JLINK_CORE_GetFound()  returns 0x30000FF (0000ms, 0555ms total)
T3884 000:580 JLINK_GetDebugInfo(0x100) -- Value=0xE00FF003  returns 0x00 (0000ms, 0555ms total)
T3884 000:580 JLINK_ReadMem (0xE00FF000, 0x0020 Bytes, ...) -- CPU is running -- CPU_ReadMem(32 bytes @ 0xE00FF000) - Data: 03 F0 F0 FF 03 20 F0 FF 03 30 F0 FF 03 10 F0 FF ...  returns 0x00 (0001ms, 0556ms total)
T3884 000:581 JLINK_ReadMem (0xE000EFF0, 0x0010 Bytes, ...) -- CPU is running -- CPU_ReadMem(16 bytes @ 0xE000EFF0) - Data: 0D 00 00 00 E0 00 00 00 05 00 00 00 B1 00 00 00  returns 0x00 (0000ms, 0556ms total)
T3884 000:581 JLINK_ReadMem (0xE000EFD0, 0x0020 Bytes, ...) -- CPU is running -- CPU_ReadMem(32 bytes @ 0xE000EFD0) - Data: 04 00 00 00 00 00 00 00 00 00 00 00 00 00 00 00 ...  returns 0x00 (0001ms, 0557ms total)
T3884 000:582 JLINK_ReadMem (0xE0001FF0, 0x0010 Bytes, ...) -- CPU is running -- CPU_ReadMem(16 bytes @ 0xE0001FF0) - Data: 0D 00 00 00 E0 00 00 00 05 00 00 00 B1 00 00 00  returns 0x00 (0001ms, 0558ms total)
T3884 000:583 JLINK_ReadMem (0xE0001FD0, 0x0020 Bytes, ...) -- CPU is running -- CPU_ReadMem(32 bytes @ 0xE0001FD0) - Data: 04 00 00 00 00 00 00 00 00 00 00 00 00 00 00 00 ...  returns 0x00 (0001ms, 0559ms total)
T3884 000:584 JLINK_ReadMem (0xE0002FF0, 0x0010 Bytes, ...) -- CPU is running -- CPU_ReadMem(16 bytes @ 0xE0002FF0) - Data: 0D 00 00 00 E0 00 00 00 05 00 00 00 B1 00 00 00  returns 0x00 (0000ms, 0559ms total)
T3884 000:584 JLINK_ReadMem (0xE0002FD0, 0x0020 Bytes, ...) -- CPU is running -- CPU_ReadMem(32 bytes @ 0xE0002FD0) - Data: 04 00 00 00 00 00 00 00 00 00 00 00 00 00 00 00 ...  returns 0x00 (0001ms, 0560ms total)
T3884 000:585 JLINK_ReadMem (0xE0000FF0, 0x0010 Bytes, ...) -- CPU is running -- CPU_ReadMem(16 bytes @ 0xE0000FF0) - Data: 0D 00 00 00 E0 00 00 00 05 00 00 00 B1 00 00 00  returns 0x00 (0001ms, 0561ms total)
T3884 000:586 JLINK_ReadMem (0xE0000FD0, 0x0020 Bytes, ...) -- CPU is running -- CPU_ReadMem(32 bytes @ 0xE0000FD0) - Data: 04 00 00 00 00 00 00 00 00 00 00 00 00 00 00 00 ...  returns 0x00 (0001ms, 0562ms total)
T3884 000:587 JLINK_ReadMem (0xE0040FF0, 0x0010 Bytes, ...) -- CPU is running -- CPU_ReadMem(16 bytes @ 0xE0040FF0) - Data: 0D 00 00 00 90 00 00 00 05 00 00 00 B1 00 00 00  returns 0x00 (0000ms, 0562ms total)
T3884 000:587 JLINK_ReadMem (0xE0040FD0, 0x0020 Bytes, ...) -- CPU is running -- CPU_ReadMem(32 bytes @ 0xE0040FD0) - Data: 04 00 00 00 00 00 00 00 00 00 00 00 00 00 00 00 ...  returns 0x00 (0001ms, 0563ms total)
T3884 000:588 JLINK_ReadMemU32(0xE000ED00, 0x0001 Items, ...) -- CPU is running -- CPU_ReadMem(4 bytes @ 0xE000ED00) - Data: 31 C2 1F 41  returns 0x01 (0001ms, 0564ms total)
T3884 000:589 JLINK_SetResetType(JLINKARM_RESET_TYPE_NORMAL)  returns JLINKARM_RESET_TYPE_NORMAL (0000ms, 0564ms total)
T3884 000:589 JLINK_Reset() -- CPU is running -- CPU_WriteMem(4 bytes @ 0xE000EDF0) -- CPU is running -- CPU_WriteMem(4 bytes @ 0xE000EDFC) >0x35 TIF> -- CPU is running -- CPU_WriteMem(4 bytes @ 0xE000ED0C) -- CPU is running -- CPU_ReadMem(4 bytes @ 0xE000EDF0) -- CPU is running -- CPU_ReadMem(4 bytes @ 0xE000EDF0) -- CPU is running -- CPU_WriteMem(4 bytes @ 0xE000EDF0) -- CPU is running -- CPU_WriteMem(4 bytes @ 0xE000EDFC) -- CPU is running -- CPU_ReadMem(4 bytes @ 0xE000EDF0)
 -- CPU_WriteMem(4 bytes @ 0xE0002000) -- CPU_ReadMem(4 bytes @ 0xE000EDFC) -- CPU_ReadMem(4 bytes @ 0xE0001000) (0021ms, 0585ms total)
T3884 000:610 JLINK_ReadReg(R15 (PC))  returns 0x08000100 (0001ms, 0586ms total)
T3884 000:611 JLINK_ReadReg(XPSR)  returns 0x01000000 (0000ms, 0586ms total)
T3884 000:611 JLINK_Halt()  returns 0x00 (0000ms, 0586ms total)
T3884 000:611 JLINK_IsHalted()  returns TRUE (0000ms, 0586ms total)
T3884 000:611 JLINK_ReadMemU32(0xE000EDF0, 0x0001 Items, ...) -- CPU_ReadMem(4 bytes @ 0xE000EDF0) - Data: 03 00 03 00  returns 0x01 (0001ms, 0587ms total)
T3884 000:612 JLINK_WriteU32(0xE000EDF0, 0xA05F0003) -- CPU_WriteMem(4 bytes @ 0xE000EDF0)  returns 0x00 (0000ms, 0587ms total)
T3884 000:612 JLINK_WriteU32(0xE000EDFC, 0x01000000) -- CPU_WriteMem(4 bytes @ 0xE000EDFC)  returns 0x00 (0001ms, 0588ms total)
T3884 000:613 JLINK_GetHWStatus(...)  returns 0x00 (0001ms, 0589ms total)
T3884 000:617 JLINK_GetNumBPUnits(Type = 0xFFFFFF00)  returns 0x06 (0000ms, 0589ms total)
T3884 000:617 JLINK_GetNumBPUnits(Type = 0xF0)  returns 0x2000 (0000ms, 0589ms total)
T3884 000:617 JLINK_GetNumWPUnits()  returns 0x04 (0000ms, 0589ms total)
T3884 000:617 JLINK_GetSpeed()  returns 0xFA0 (0000ms, 0589ms total)
T3884 000:618 JLINK_ReadMemU32(0xE000E004, 0x0001 Items, ...) -- CPU_ReadMem(4 bytes @ 0xE000E004) - Data: 01 00 00 00  returns 0x01 (0000ms, 0589ms total)
T3884 000:618 JLINK_ReadMemU32(0xE000E004, 0x0001 Items, ...) -- CPU_ReadMem(4 bytes @ 0xE000E004) - Data: 01 00 00 00  returns 0x01 (0001ms, 0590ms total)
T3884 000:619 JLINK_WriteMem(0xE0001000, 0x001C Bytes, ...) - Data: 01 00 00 00 00 00 00 00 00 00 00 00 00 00 00 00 ... -- CPU_WriteMem(28 bytes @ 0xE0001000)  returns 0x1C (0001ms, 0591ms total)
T3884 000:620 JLINK_ReadMem (0xE0001000, 0x001C Bytes, ...) -- CPU_ReadMem(28 bytes @ 0xE0001000) - Data: 01 00 00 40 00 00 00 00 00 00 00 00 00 00 00 00 ...  returns 0x00 (0001ms, 0592ms total)
T3884 000:621 JLINK_ReadReg(R15 (PC))  returns 0x08000100 (0000ms, 0592ms total)
T3884 000:621 JLINK_ReadReg(XPSR)  returns 0x01000000 (0000ms, 0592ms total)
T3884 000:702 JLINK_SetResetType(JLINKARM_RESET_TYPE_NORMAL)  returns JLINKARM_RESET_TYPE_NORMAL (0000ms, 0592ms total)
T3884 000:702 JLINK_Reset() -- CPU_WriteMem(4 bytes @ 0xE000EDF0) -- CPU_WriteMem(4 bytes @ 0xE000EDFC) >0x35 TIF> -- CPU_WriteMem(4 bytes @ 0xE000ED0C) -- CPU_ReadMem(4 bytes @ 0xE000EDF0) -- CPU_ReadMem(4 bytes @ 0xE000EDF0) -- CPU_WriteMem(4 bytes @ 0xE000EDF0) -- CPU_WriteMem(4 bytes @ 0xE000EDFC) -- CPU is running -- CPU_ReadMem(4 bytes @ 0xE000EDF0) -- CPU_WriteMem(4 bytes @ 0xE0002000) -- CPU_ReadMem(4 bytes @ 0xE000EDFC) -- CPU_ReadMem(4 bytes @ 0xE0001000) (0021ms, 0613ms total)
T3884 000:723 JLINK_ReadReg(R15 (PC))  returns 0x08000100 (0000ms, 0613ms total)
T3884 000:723 JLINK_ReadReg(XPSR)  returns 0x01000000 (0000ms, 0613ms total)
T3884 000:724 JLINK_ReadMemU32(0xE0001004, 0x0001 Items, ...) -- CPU_ReadMem(4 bytes @ 0xE0001004) - Data: FB 0C 00 00  returns 0x01 (0000ms, 0613ms total)
T3884 000:931 JLINK_ReadMem (0x08000100, 0x003C Bytes, ...) -- CPU_ReadMem(64 bytes @ 0x08000100) -- Updating C cache (64 bytes @ 0x08000100) -- Read from C cache (60 bytes @ 0x08000100) - Data: 06 48 80 47 06 48 00 47 FE E7 FE E7 FE E7 FE E7 ...  returns 0x00 (0002ms, 0615ms total)
T3884 001:642 JLINK_ReadMem (0x00000000, 0x0036 Bytes, ...) -- CPU_ReadMem(4 bytes @ 0x00000004) -- CPU_ReadMem(64 bytes @ 0x08000000) -- Updating C cache (64 bytes @ 0x08000000) -- Read from C cache (54 bytes @ 0x08000000) - Data: 18 05 00 20 01 01 00 08 6D 02 00 08 65 02 00 08 ...  returns 0x00 (0002ms, 0617ms total)
T3884 002:068 JLINK_ReadMem (0x00000000, 0x004E Bytes, ...) -- CPU_ReadMem(64 bytes @ 0x08000040) -- Updating C cache (64 bytes @ 0x08000040) -- Read from C cache (78 bytes @ 0x08000000) - Data: 18 05 00 20 01 01 00 08 6D 02 00 08 65 02 00 08 ...  returns 0x00 (0001ms, 0618ms total)
T3884 002:435 JLINK_ReadMem (0x2000006C, 0x0009 Bytes, ...) -- CPU_ReadMem(64 bytes @ 0x20000040) -- Updating C cache (64 bytes @ 0x20000040) -- Read from C cache (9 bytes @ 0x2000006C) - Data: C6 00 00 7F FF FF 05 39 B0  returns 0x00 (0002ms, 0620ms total)
T3884 002:438 JLINK_ReadMem (0x20000008, 0x0004 Bytes, ...) -- CPU_ReadMem(64 bytes @ 0x20000000) -- Updating C cache (64 bytes @ 0x20000000) -- Read from C cache (4 bytes @ 0x20000008) - Data: 28 3B 05 00  returns 0x00 (0001ms, 0621ms total)
T3884 002:441 JLINK_ReadMem (0x2000001C, 0x0001 Bytes, ...) -- Read from C cache (1 bytes @ 0x2000001C) - Data: 84  returns 0x00 (0000ms, 0621ms total)
T3884 002:443 JLINK_ReadMem (0x20000014, 0x0004 Bytes, ...) -- Read from C cache (4 bytes @ 0x20000014) - Data: E0 18 00 00  returns 0x00 (0000ms, 0621ms total)
T3884 002:444 JLINK_ReadMem (0x20000018, 0x0004 Bytes, ...) -- Read from C cache (4 bytes @ 0x20000018) - Data: 00 00 00 00  returns 0x00 (0000ms, 0621ms total)
T3884 002:446 JLINK_ReadMem (0x2000000C, 0x0004 Bytes, ...) -- Read from C cache (4 bytes @ 0x2000000C) - Data: CF 3D 05 00  returns 0x00 (0000ms, 0621ms total)
T3884 002:447 JLINK_ReadMem (0x20000010, 0x0004 Bytes, ...) -- Read from C cache (4 bytes @ 0x20000010) - Data: 28 3B 05 00  returns 0x00 (0000ms, 0621ms total)
T3884 002:448 JLINK_ReadMem (0x2000001D, 0x000A Bytes, ...) -- Read from C cache (10 bytes @ 0x2000001D) - Data: 98 9C B4 9F 81 2A C1 38 49 BA  returns 0x00 (0000ms, 0621ms total)
T4A20 002:468 JLINK_SetBPEx(Addr = 0x08000D50, Type = 0xFFFFFFF2)  returns 0x00000001 (0000ms, 0621ms total)
T4A20 002:468 JLINK_Go() -- CPU_WriteMem(4 bytes @ 0xE0002000) -- CPU_WriteMem(4 bytes @ 0xE0002008) -- CPU_WriteMem(4 bytes @ 0xE000200C) -- CPU_WriteMem(4 bytes @ 0xE0002010) -- CPU_WriteMem(4 bytes @ 0xE0002014) -- CPU_WriteMem(4 bytes @ 0xE0002018) -- CPU_WriteMem(4 bytes @ 0xE000201C) -- CPU_WriteMem(4 bytes @ 0xE0001004) (0004ms, 0625ms total)
T4A20 002:573 JLINK_IsHalted()  returns TRUE (0003ms, 0628ms total)
T4A20 002:576 JLINK_Halt()  returns 0x00 (0000ms, 0625ms total)
T4A20 002:576 JLINK_IsHalted()  returns TRUE (0000ms, 0625ms total)
T4A20 002:576 JLINK_IsHalted()  returns TRUE (0000ms, 0625ms total)
T4A20 002:576 JLINK_IsHalted()  returns TRUE (0000ms, 0625ms total)
T4A20 002:576 JLINK_ReadReg(R15 (PC))  returns 0x08000D50 (0000ms, 0625ms total)
T4A20 002:576 JLINK_ReadReg(XPSR)  returns 0x61000000 (0000ms, 0625ms total)
T4A20 002:576 JLINK_ClrBPEx(BPHandle = 0x00000001)  returns 0x00 (0000ms, 0625ms total)
T4A20 002:576 JLINK_ReadMemU32(0xE000ED30, 0x0001 Items, ...) -- CPU_ReadMem(4 bytes @ 0xE000ED30) - Data: 03 00 00 00  returns 0x01 (0000ms, 0625ms total)
T4A20 002:576 JLINK_ReadMemU32(0xE0001028, 0x0001 Items, ...) -- CPU_ReadMem(4 bytes @ 0xE0001028) - Data: 00 00 00 00  returns 0x01 (0032ms, 0657ms total)
T4A20 002:608 JLINK_ReadMemU32(0xE0001038, 0x0001 Items, ...) -- CPU_ReadMem(4 bytes @ 0xE0001038) - Data: 00 02 00 00  returns 0x01 (0001ms, 0658ms total)
T4A20 002:609 JLINK_ReadMemU32(0xE0001048, 0x0001 Items, ...) -- CPU_ReadMem(4 bytes @ 0xE0001048) - Data: 00 00 00 00  returns 0x01 (0000ms, 0658ms total)
T4A20 002:609 JLINK_ReadMemU32(0xE0001058, 0x0001 Items, ...) -- CPU_ReadMem(4 bytes @ 0xE0001058) - Data: 00 00 00 00  returns 0x01 (0001ms, 0659ms total)
T4A20 002:610 JLINK_ReadReg(R0)  returns 0x08000D51 (0000ms, 0659ms total)
T4A20 002:610 JLINK_ReadReg(R1)  returns 0x20000518 (0000ms, 0659ms total)
T4A20 002:610 JLINK_ReadReg(R2)  returns 0x00000000 (0000ms, 0659ms total)
T4A20 002:610 JLINK_ReadReg(R3)  returns 0x08000963 (0000ms, 0659ms total)
T4A20 002:610 JLINK_ReadReg(R4)  returns 0x080011A0 (0000ms, 0659ms total)
T4A20 002:610 JLINK_ReadReg(R5)  returns 0x080011A0 (0000ms, 0659ms total)
T4A20 002:610 JLINK_ReadReg(R6)  returns 0x00000000 (0000ms, 0659ms total)
T4A20 002:610 JLINK_ReadReg(R7)  returns 0x00000000 (0000ms, 0659ms total)
T4A20 002:610 JLINK_ReadReg(R8)  returns 0x00000000 (0000ms, 0659ms total)
T4A20 002:610 JLINK_ReadReg(R9)  returns 0x20000160 (0000ms, 0659ms total)
T4A20 002:610 JLINK_ReadReg(R10)  returns 0x00000000 (0000ms, 0659ms total)
T4A20 002:610 JLINK_ReadReg(R11)  returns 0x00000000 (0000ms, 0659ms total)
T4A20 002:610 JLINK_ReadReg(R12)  returns 0x000000E0 (0000ms, 0659ms total)
T4A20 002:610 JLINK_ReadReg(R13 (SP))  returns 0x20000518 (0000ms, 0659ms total)
T4A20 002:610 JLINK_ReadReg(R14)  returns 0x08000141 (0000ms, 0659ms total)
T4A20 002:610 JLINK_ReadReg(R15 (PC))  returns 0x08000D50 (0000ms, 0659ms total)
T4A20 002:610 JLINK_ReadReg(XPSR)  returns 0x61000000 (0000ms, 0659ms total)
T4A20 002:610 JLINK_ReadReg(MSP)  returns 0x20000518 (0000ms, 0659ms total)
T4A20 002:610 JLINK_ReadReg(PSP)  returns 0x20001000 (0000ms, 0659ms total)
T4A20 002:610 JLINK_ReadReg(CFBP)  returns 0x00000000 (0000ms, 0659ms total)
T3884 002:615 JLINK_ReadMemU32(0xE0001004, 0x0001 Items, ...) -- CPU_ReadMem(4 bytes @ 0xE0001004) - Data: 14 1D 00 00  returns 0x01 (0000ms, 0659ms total)
T3884 002:618 JLINK_ReadMem (0x08000D50, 0x003C Bytes, ...) -- CPU_ReadMem(128 bytes @ 0x08000D40) -- Updating C cache (128 bytes @ 0x08000D40) -- Read from C cache (60 bytes @ 0x08000D50) - Data: FF F7 7E FF 4F F4 40 70 FF F7 C2 FA 4F F4 7A 30 ...  returns 0x00 (0002ms, 0661ms total)
T4A20 005:642 JLINK_SetBPEx(Addr = 0x08000D54, Type = 0xFFFFFFF2)  returns 0x00000002 (0000ms, 0661ms total)
T4A20 005:643 JLINK_Go() -- CPU_WriteMem(4 bytes @ 0xE0002000) -- CPU_WriteMem(4 bytes @ 0xE0002008) (0002ms, 0663ms total)
T4A20 005:746 JLINK_IsHalted()  returns TRUE (0004ms, 0667ms total)
T4A20 005:750 JLINK_Halt()  returns 0x00 (0000ms, 0663ms total)
T4A20 005:750 JLINK_IsHalted()  returns TRUE (0000ms, 0663ms total)
T4A20 005:750 JLINK_IsHalted()  returns TRUE (0000ms, 0663ms total)
T4A20 005:750 JLINK_IsHalted()  returns TRUE (0000ms, 0663ms total)
T4A20 005:750 JLINK_ReadReg(R15 (PC))  returns 0x08000D54 (0000ms, 0663ms total)
T4A20 005:750 JLINK_ReadReg(XPSR)  returns 0xA1000000 (0000ms, 0663ms total)
T4A20 005:750 JLINK_ClrBPEx(BPHandle = 0x00000002)  returns 0x00 (0000ms, 0663ms total)
T4A20 005:750 JLINK_ReadMemU32(0xE000ED30, 0x0001 Items, ...) -- CPU_ReadMem(4 bytes @ 0xE000ED30) - Data: 03 00 00 00  returns 0x01 (0000ms, 0663ms total)
T4A20 005:750 JLINK_ReadMemU32(0xE0001028, 0x0001 Items, ...) -- CPU_ReadMem(4 bytes @ 0xE0001028) - Data: 00 00 00 00  returns 0x01 (0002ms, 0665ms total)
T4A20 005:752 JLINK_ReadMemU32(0xE0001038, 0x0001 Items, ...) -- CPU_ReadMem(4 bytes @ 0xE0001038) - Data: 00 02 00 00  returns 0x01 (0000ms, 0665ms total)
T4A20 005:752 JLINK_ReadMemU32(0xE0001048, 0x0001 Items, ...) -- CPU_ReadMem(4 bytes @ 0xE0001048) - Data: 00 00 00 00  returns 0x01 (0001ms, 0666ms total)
T4A20 005:753 JLINK_ReadMemU32(0xE0001058, 0x0001 Items, ...) -- CPU_ReadMem(4 bytes @ 0xE0001058) - Data: 00 00 00 00  returns 0x01 (0000ms, 0666ms total)
T4A20 005:753 JLINK_ReadReg(R0)  returns 0x00002328 (0000ms, 0666ms total)
T4A20 005:753 JLINK_ReadReg(R1)  returns 0x2000004A (0000ms, 0666ms total)
T4A20 005:753 JLINK_ReadReg(R2)  returns 0xE000E000 (0000ms, 0666ms total)
T4A20 005:753 JLINK_ReadReg(R3)  returns 0x08000963 (0000ms, 0666ms total)
T4A20 005:753 JLINK_ReadReg(R4)  returns 0x080011A0 (0000ms, 0666ms total)
T4A20 005:753 JLINK_ReadReg(R5)  returns 0x080011A0 (0000ms, 0666ms total)
T4A20 005:753 JLINK_ReadReg(R6)  returns 0x00000000 (0000ms, 0666ms total)
T4A20 005:753 JLINK_ReadReg(R7)  returns 0x00000000 (0000ms, 0666ms total)
T4A20 005:753 JLINK_ReadReg(R8)  returns 0x00000000 (0000ms, 0666ms total)
T4A20 005:753 JLINK_ReadReg(R9)  returns 0x20000160 (0000ms, 0666ms total)
T4A20 005:753 JLINK_ReadReg(R10)  returns 0x00000000 (0000ms, 0666ms total)
T4A20 005:753 JLINK_ReadReg(R11)  returns 0x00000000 (0000ms, 0666ms total)
T4A20 005:753 JLINK_ReadReg(R12)  returns 0x000000E0 (0000ms, 0666ms total)
T4A20 005:753 JLINK_ReadReg(R13 (SP))  returns 0x20000518 (0000ms, 0666ms total)
T4A20 005:753 JLINK_ReadReg(R14)  returns 0x08000C5B (0000ms, 0666ms total)
T4A20 005:753 JLINK_ReadReg(R15 (PC))  returns 0x08000D54 (0000ms, 0666ms total)
T4A20 005:753 JLINK_ReadReg(XPSR)  returns 0xA1000000 (0000ms, 0666ms total)
T4A20 005:753 JLINK_ReadReg(MSP)  returns 0x20000518 (0000ms, 0666ms total)
T4A20 005:753 JLINK_ReadReg(PSP)  returns 0x20001000 (0000ms, 0666ms total)
T4A20 005:753 JLINK_ReadReg(CFBP)  returns 0x00000000 (0000ms, 0666ms total)
T3884 005:756 JLINK_ReadMemU32(0xE0001004, 0x0001 Items, ...) -- CPU_ReadMem(4 bytes @ 0xE0001004) - Data: 68 1D 00 00  returns 0x01 (0001ms, 0667ms total)
T3884 005:764 JLINK_ReadMem (0x08000D50, 0x003C Bytes, ...) -- CPU_ReadMem(128 bytes @ 0x08000D40) -- Updating C cache (128 bytes @ 0x08000D40) -- Read from C cache (60 bytes @ 0x08000D50) - Data: FF F7 7E FF 4F F4 40 70 FF F7 C2 FA 4F F4 7A 30 ...  returns 0x00 (0002ms, 0669ms total)
T4A20 006:968 JLINK_Step() -- Read from C cache (2 bytes @ 0x08000D54) -- Read from C cache (2 bytes @ 0x08000D56) -- Simulated  returns 0x00 (0001ms, 0670ms total)
T4A20 006:969 JLINK_ReadReg(R15 (PC))  returns 0x08000D58 (0000ms, 0670ms total)
T4A20 006:969 JLINK_ReadReg(XPSR)  returns 0xA1000000 (0000ms, 0670ms total)
T4A20 006:969 JLINK_SetBPEx(Addr = 0x08000D5C, Type = 0xFFFFFFF2)  returns 0x00000003 (0000ms, 0670ms total)
T4A20 006:969 JLINK_Go() -- CPU_WriteMem(4 bytes @ 0xE0002000) -- CPU_WriteMem(4 bytes @ 0xE0002008) -- CPU_WriteMem(4 bytes @ 0xE0001004) (0003ms, 0673ms total)
T4A20 007:073 JLINK_IsHalted()  returns TRUE (0003ms, 0676ms total)
T4A20 007:076 JLINK_Halt()  returns 0x00 (0000ms, 0673ms total)
T4A20 007:076 JLINK_IsHalted()  returns TRUE (0000ms, 0673ms total)
T4A20 007:076 JLINK_IsHalted()  returns TRUE (0000ms, 0673ms total)
T4A20 007:076 JLINK_IsHalted()  returns TRUE (0000ms, 0673ms total)
T4A20 007:076 JLINK_ReadReg(R15 (PC))  returns 0x08000D5C (0000ms, 0673ms total)
T4A20 007:076 JLINK_ReadReg(XPSR)  returns 0x21000000 (0000ms, 0673ms total)
T4A20 007:076 JLINK_ClrBPEx(BPHandle = 0x00000003)  returns 0x00 (0000ms, 0673ms total)
T4A20 007:076 JLINK_ReadMemU32(0xE000ED30, 0x0001 Items, ...) -- CPU_ReadMem(4 bytes @ 0xE000ED30) - Data: 03 00 00 00  returns 0x01 (0001ms, 0674ms total)
T4A20 007:077 JLINK_ReadMemU32(0xE0001028, 0x0001 Items, ...) -- CPU_ReadMem(4 bytes @ 0xE0001028) - Data: 00 00 00 00  returns 0x01 (0001ms, 0675ms total)
T4A20 007:078 JLINK_ReadMemU32(0xE0001038, 0x0001 Items, ...) -- CPU_ReadMem(4 bytes @ 0xE0001038) - Data: 00 02 00 00  returns 0x01 (0001ms, 0676ms total)
T4A20 007:079 JLINK_ReadMemU32(0xE0001048, 0x0001 Items, ...) -- CPU_ReadMem(4 bytes @ 0xE0001048) - Data: 00 00 00 00  returns 0x01 (0001ms, 0677ms total)
T4A20 007:080 JLINK_ReadMemU32(0xE0001058, 0x0001 Items, ...) -- CPU_ReadMem(4 bytes @ 0xE0001058) - Data: 00 00 00 00  returns 0x01 (0001ms, 0678ms total)
T4A20 007:081 JLINK_ReadReg(R0)  returns 0x00000300 (0000ms, 0678ms total)
T4A20 007:081 JLINK_ReadReg(R1)  returns 0x05FA0300 (0000ms, 0678ms total)
T4A20 007:081 JLINK_ReadReg(R2)  returns 0xE000ED0C (0000ms, 0678ms total)
T4A20 007:081 JLINK_ReadReg(R3)  returns 0x08000963 (0000ms, 0678ms total)
T4A20 007:081 JLINK_ReadReg(R4)  returns 0x080011A0 (0000ms, 0678ms total)
T4A20 007:081 JLINK_ReadReg(R5)  returns 0x080011A0 (0000ms, 0678ms total)
T4A20 007:081 JLINK_ReadReg(R6)  returns 0x00000000 (0000ms, 0678ms total)
T4A20 007:081 JLINK_ReadReg(R7)  returns 0x00000000 (0000ms, 0678ms total)
T4A20 007:081 JLINK_ReadReg(R8)  returns 0x00000000 (0000ms, 0678ms total)
T4A20 007:081 JLINK_ReadReg(R9)  returns 0x20000160 (0000ms, 0678ms total)
T4A20 007:081 JLINK_ReadReg(R10)  returns 0x00000000 (0000ms, 0678ms total)
T4A20 007:081 JLINK_ReadReg(R11)  returns 0x00000000 (0000ms, 0678ms total)
T4A20 007:081 JLINK_ReadReg(R12)  returns 0x000000E0 (0000ms, 0678ms total)
T4A20 007:081 JLINK_ReadReg(R13 (SP))  returns 0x20000518 (0000ms, 0678ms total)
T4A20 007:081 JLINK_ReadReg(R14)  returns 0x08000D5D (0000ms, 0678ms total)
T4A20 007:081 JLINK_ReadReg(R15 (PC))  returns 0x08000D5C (0000ms, 0678ms total)
T4A20 007:081 JLINK_ReadReg(XPSR)  returns 0x21000000 (0000ms, 0678ms total)
T4A20 007:081 JLINK_ReadReg(MSP)  returns 0x20000518 (0000ms, 0678ms total)
T4A20 007:081 JLINK_ReadReg(PSP)  returns 0x20001000 (0000ms, 0678ms total)
T4A20 007:081 JLINK_ReadReg(CFBP)  returns 0x00000000 (0000ms, 0678ms total)
T3884 007:086 JLINK_ReadMemU32(0xE0001004, 0x0001 Items, ...) -- CPU_ReadMem(4 bytes @ 0xE0001004) - Data: 81 1D 00 00  returns 0x01 (0001ms, 0679ms total)
T3884 007:091 JLINK_ReadMem (0x08000D5C, 0x003C Bytes, ...) -- CPU_ReadMem(128 bytes @ 0x08000D40) -- Updating C cache (128 bytes @ 0x08000D40) -- Read from C cache (60 bytes @ 0x08000D5C) - Data: 4F F4 7A 30 00 F0 BE F9 00 BF 05 20 FF F7 1E FE ...  returns 0x00 (0001ms, 0680ms total)
T4A20 007:354 JLINK_Step() -- Read from C cache (2 bytes @ 0x08000D5C) -- Read from C cache (2 bytes @ 0x08000D5E) -- Simulated  returns 0x00 (0000ms, 0680ms total)
T4A20 007:354 JLINK_ReadReg(R15 (PC))  returns 0x08000D60 (0000ms, 0680ms total)
T4A20 007:354 JLINK_ReadReg(XPSR)  returns 0x21000000 (0000ms, 0680ms total)
T4A20 007:354 JLINK_SetBPEx(Addr = 0x08000D64, Type = 0xFFFFFFF2)  returns 0x00000004 (0000ms, 0680ms total)
T4A20 007:354 JLINK_Go() -- CPU_WriteMem(4 bytes @ 0xE0002000) -- CPU_WriteMem(4 bytes @ 0xE0002008) -- CPU_WriteMem(4 bytes @ 0xE0001004) (0003ms, 0683ms total)
T4A20 007:459 JLINK_IsHalted()  returns TRUE (0004ms, 0687ms total)
T4A20 007:463 JLINK_Halt()  returns 0x00 (0000ms, 0683ms total)
T4A20 007:463 JLINK_IsHalted()  returns TRUE (0000ms, 0683ms total)
T4A20 007:463 JLINK_IsHalted()  returns TRUE (0000ms, 0683ms total)
T4A20 007:463 JLINK_IsHalted()  returns TRUE (0000ms, 0683ms total)
T4A20 007:463 JLINK_ReadReg(R15 (PC))  returns 0x08000D64 (0000ms, 0683ms total)
T4A20 007:463 JLINK_ReadReg(XPSR)  returns 0x01000000 (0000ms, 0683ms total)
T4A20 007:463 JLINK_ClrBPEx(BPHandle = 0x00000004)  returns 0x00 (0000ms, 0683ms total)
T4A20 007:463 JLINK_ReadMemU32(0xE000ED30, 0x0001 Items, ...) -- CPU_ReadMem(4 bytes @ 0xE000ED30) - Data: 03 00 00 00  returns 0x01 (0000ms, 0683ms total)
T4A20 007:463 JLINK_ReadMemU32(0xE0001028, 0x0001 Items, ...) -- CPU_ReadMem(4 bytes @ 0xE0001028) - Data: 00 00 00 00  returns 0x01 (0001ms, 0684ms total)
T4A20 007:464 JLINK_ReadMemU32(0xE0001038, 0x0001 Items, ...) -- CPU_ReadMem(4 bytes @ 0xE0001038) - Data: 00 02 00 00  returns 0x01 (0001ms, 0685ms total)
T4A20 007:465 JLINK_ReadMemU32(0xE0001048, 0x0001 Items, ...) -- CPU_ReadMem(4 bytes @ 0xE0001048) - Data: 00 00 00 00  returns 0x01 (0000ms, 0685ms total)
T4A20 007:465 JLINK_ReadMemU32(0xE0001058, 0x0001 Items, ...) -- CPU_ReadMem(4 bytes @ 0xE0001058) - Data: 00 00 00 00  returns 0x01 (0001ms, 0686ms total)
T4A20 007:466 JLINK_ReadReg(R0)  returns 0x40013800 (0000ms, 0686ms total)
T4A20 007:466 JLINK_ReadReg(R1)  returns 0x00000001 (0000ms, 0686ms total)
T4A20 007:466 JLINK_ReadReg(R2)  returns 0x0000202C (0000ms, 0686ms total)
T4A20 007:466 JLINK_ReadReg(R3)  returns 0x40013800 (0000ms, 0686ms total)
T4A20 007:466 JLINK_ReadReg(R4)  returns 0x080011A0 (0000ms, 0686ms total)
T4A20 007:466 JLINK_ReadReg(R5)  returns 0x080011A0 (0000ms, 0686ms total)
T4A20 007:466 JLINK_ReadReg(R6)  returns 0x00000000 (0000ms, 0686ms total)
T4A20 007:466 JLINK_ReadReg(R7)  returns 0x00000000 (0000ms, 0686ms total)
T4A20 007:466 JLINK_ReadReg(R8)  returns 0x00000000 (0000ms, 0686ms total)
T4A20 007:466 JLINK_ReadReg(R9)  returns 0x20000160 (0000ms, 0686ms total)
T4A20 007:466 JLINK_ReadReg(R10)  returns 0x00000000 (0000ms, 0686ms total)
T4A20 007:466 JLINK_ReadReg(R11)  returns 0x00000000 (0000ms, 0686ms total)
T4A20 007:466 JLINK_ReadReg(R12)  returns 0x00000400 (0000ms, 0686ms total)
T4A20 007:466 JLINK_ReadReg(R13 (SP))  returns 0x20000518 (0000ms, 0686ms total)
T4A20 007:466 JLINK_ReadReg(R14)  returns 0x08001175 (0000ms, 0686ms total)
T4A20 007:466 JLINK_ReadReg(R15 (PC))  returns 0x08000D64 (0000ms, 0686ms total)
T4A20 007:466 JLINK_ReadReg(XPSR)  returns 0x01000000 (0000ms, 0686ms total)
T4A20 007:466 JLINK_ReadReg(MSP)  returns 0x20000518 (0000ms, 0686ms total)
T4A20 007:466 JLINK_ReadReg(PSP)  returns 0x20001000 (0000ms, 0686ms total)
T4A20 007:467 JLINK_ReadReg(CFBP)  returns 0x00000000 (0000ms, 0687ms total)
T3884 007:469 JLINK_ReadMemU32(0xE0001004, 0x0001 Items, ...) -- CPU_ReadMem(4 bytes @ 0xE0001004) - Data: F9 21 00 00  returns 0x01 (0001ms, 0688ms total)
T3884 007:473 JLINK_ReadMem (0x08000D64, 0x003C Bytes, ...) -- CPU_ReadMem(128 bytes @ 0x08000D40) -- Updating C cache (128 bytes @ 0x08000D40) -- Read from C cache (60 bytes @ 0x08000D64) - Data: 00 BF 05 20 FF F7 1E FE 00 28 FA D0 FF F7 9E FE ...  returns 0x00 (0002ms, 0690ms total)
T4A20 007:554 JLINK_Step() -- Read from C cache (2 bytes @ 0x08000D64) -- Simulated  returns 0x00 (0001ms, 0691ms total)
T4A20 007:555 JLINK_ReadReg(R15 (PC))  returns 0x08000D66 (0000ms, 0691ms total)
T4A20 007:555 JLINK_ReadReg(XPSR)  returns 0x01000000 (0000ms, 0691ms total)
T4A20 007:556 JLINK_ReadReg(R0)  returns 0x40013800 (0000ms, 0691ms total)
T4A20 007:556 JLINK_ReadReg(R1)  returns 0x00000001 (0000ms, 0691ms total)
T4A20 007:556 JLINK_ReadReg(R2)  returns 0x0000202C (0000ms, 0691ms total)
T4A20 007:556 JLINK_ReadReg(R3)  returns 0x40013800 (0000ms, 0691ms total)
T4A20 007:556 JLINK_ReadReg(R4)  returns 0x080011A0 (0000ms, 0691ms total)
T4A20 007:556 JLINK_ReadReg(R5)  returns 0x080011A0 (0000ms, 0691ms total)
T4A20 007:556 JLINK_ReadReg(R6)  returns 0x00000000 (0000ms, 0691ms total)
T4A20 007:556 JLINK_ReadReg(R7)  returns 0x00000000 (0000ms, 0691ms total)
T4A20 007:556 JLINK_ReadReg(R8)  returns 0x00000000 (0000ms, 0691ms total)
T4A20 007:556 JLINK_ReadReg(R9)  returns 0x20000160 (0000ms, 0691ms total)
T4A20 007:556 JLINK_ReadReg(R10)  returns 0x00000000 (0000ms, 0691ms total)
T4A20 007:556 JLINK_ReadReg(R11)  returns 0x00000000 (0000ms, 0691ms total)
T4A20 007:556 JLINK_ReadReg(R12)  returns 0x00000400 (0000ms, 0691ms total)
T4A20 007:556 JLINK_ReadReg(R13 (SP))  returns 0x20000518 (0000ms, 0691ms total)
T4A20 007:556 JLINK_ReadReg(R14)  returns 0x08001175 (0000ms, 0691ms total)
T4A20 007:556 JLINK_ReadReg(R15 (PC))  returns 0x08000D66 (0000ms, 0691ms total)
T4A20 007:556 JLINK_ReadReg(XPSR)  returns 0x01000000 (0000ms, 0691ms total)
T4A20 007:556 JLINK_ReadReg(MSP)  returns 0x20000518 (0000ms, 0691ms total)
T4A20 007:556 JLINK_ReadReg(PSP)  returns 0x20001000 (0000ms, 0691ms total)
T4A20 007:556 JLINK_ReadReg(CFBP)  returns 0x00000000 (0000ms, 0691ms total)
T3884 007:558 JLINK_ReadMemU32(0xE0001004, 0x0001 Items, ...) - Data: F9 21 00 00  returns 0x01 (0000ms, 0691ms total)
T4A20 007:888 JLINK_ReadMem (0x08000D66, 0x0002 Bytes, ...) -- Read from C cache (2 bytes @ 0x08000D66) - Data: 05 20  returns 0x00 (0000ms, 0691ms total)
T4A20 007:888 JLINK_ReadMem (0x08000D68, 0x003C Bytes, ...) -- Read from C cache (60 bytes @ 0x08000D68) - Data: FF F7 1E FE 00 28 FA D0 FF F7 9E FE FF F7 E0 FC ...  returns 0x00 (0000ms, 0691ms total)
T4A20 007:888 JLINK_Step() -- Read from C cache (2 bytes @ 0x08000D66) -- Simulated  returns 0x00 (0000ms, 0691ms total)
T4A20 007:888 JLINK_ReadReg(R15 (PC))  returns 0x08000D68 (0000ms, 0691ms total)
T4A20 007:888 JLINK_ReadReg(XPSR)  returns 0x01000000 (0000ms, 0691ms total)
T4A20 007:888 JLINK_SetBPEx(Addr = 0x08000D6C, Type = 0xFFFFFFF2)  returns 0x00000005 (0000ms, 0691ms total)
T4A20 007:888 JLINK_Go() -- CPU_WriteMem(4 bytes @ 0xE0002000) -- CPU_WriteMem(4 bytes @ 0xE0002008) -- CPU_WriteMem(4 bytes @ 0xE0001004) (0004ms, 0695ms total)
T4A20 007:992 JLINK_IsHalted()  returns FALSE (0001ms, 0696ms total)
T4A20 008:094 JLINK_IsHalted()  returns FALSE (0000ms, 0695ms total)
T4A20 008:195 JLINK_IsHalted()  returns FALSE (0000ms, 0695ms total)
T4A20 008:296 JLINK_IsHalted()  returns FALSE (0001ms, 0696ms total)
T4A20 008:398 JLINK_IsHalted()  returns FALSE (0000ms, 0695ms total)
T4A20 008:500 JLINK_ReadMemU32(0xE0001004, 0x0001 Items, ...) -- CPU is running -- CPU_ReadMem(4 bytes @ 0xE0001004) - Data: ED 4C 9C 02  returns 0x01 (0000ms, 0695ms total)
T4A20 008:500 JLINK_IsHalted()  returns FALSE (0000ms, 0695ms total)
T4A20 008:602 JLINK_IsHalted()  returns FALSE (0001ms, 0696ms total)
T4A20 008:703 JLINK_IsHalted()  returns FALSE (0001ms, 0696ms total)
T4A20 008:805 JLINK_IsHalted()  returns FALSE (0001ms, 0696ms total)
T4A20 008:906 JLINK_IsHalted()  returns FALSE (0001ms, 0696ms total)
T4A20 009:007 JLINK_ReadMemU32(0xE0001004, 0x0001 Items, ...) -- CPU is running -- CPU_ReadMem(4 bytes @ 0xE0001004) - Data: C6 EA C9 04  returns 0x01 (0001ms, 0696ms total)
T4A20 009:008 JLINK_IsHalted()  returns FALSE (0001ms, 0697ms total)
T4A20 009:110 JLINK_IsHalted()  returns FALSE (0001ms, 0697ms total)
T4A20 009:211 JLINK_IsHalted()  returns FALSE (0001ms, 0697ms total)
T4A20 009:313 JLINK_IsHalted()  returns FALSE (0000ms, 0696ms total)
T4A20 009:414 JLINK_IsHalted()  returns FALSE (0000ms, 0696ms total)
T4A20 009:515 JLINK_IsHalted()  returns FALSE (0001ms, 0697ms total)
T4A20 009:617 JLINK_ReadMemU32(0xE0001004, 0x0001 Items, ...) -- CPU is running -- CPU_ReadMem(4 bytes @ 0xE0001004) - Data: 5C 67 68 07  returns 0x01 (0000ms, 0696ms total)
T4A20 009:617 JLINK_IsHalted()  returns FALSE (0001ms, 0697ms total)
T4A20 009:719 JLINK_IsHalted()  returns FALSE (0000ms, 0696ms total)
T4A20 009:820 JLINK_IsHalted()  returns FALSE (0000ms, 0696ms total)
T4A20 009:921 JLINK_IsHalted()  returns FALSE (0001ms, 0697ms total)
T4A20 010:022 JLINK_IsHalted()  returns FALSE (0000ms, 0696ms total)
T4A20 010:124 JLINK_IsHalted()  returns FALSE (0000ms, 0696ms total)
T4A20 010:225 JLINK_ReadMemU32(0xE0001004, 0x0001 Items, ...) -- CPU is running -- CPU_ReadMem(4 bytes @ 0xE0001004) - Data: 05 13 04 0A  returns 0x01 (0001ms, 0697ms total)
T4A20 010:226 JLINK_IsHalted()  returns FALSE (0001ms, 0698ms total)
T4A20 010:328 JLINK_IsHalted()  returns TRUE (0003ms, 0700ms total)
T4A20 010:331 JLINK_Halt()  returns 0x00 (0000ms, 0697ms total)
T4A20 010:331 JLINK_IsHalted()  returns TRUE (0000ms, 0697ms total)
T4A20 010:331 JLINK_IsHalted()  returns TRUE (0000ms, 0697ms total)
T4A20 010:331 JLINK_IsHalted()  returns TRUE (0000ms, 0697ms total)
T4A20 010:331 JLINK_ReadReg(R15 (PC))  returns 0x08000D6C (0000ms, 0697ms total)
T4A20 010:331 JLINK_ReadReg(XPSR)  returns 0x01000000 (0000ms, 0697ms total)
T4A20 010:331 JLINK_ClrBPEx(BPHandle = 0x00000005)  returns 0x00 (0000ms, 0697ms total)
T4A20 010:331 JLINK_ReadMemU32(0xE000ED30, 0x0001 Items, ...) -- CPU_ReadMem(4 bytes @ 0xE000ED30) - Data: 03 00 00 00  returns 0x01 (0001ms, 0698ms total)
T4A20 010:332 JLINK_ReadMemU32(0xE0001028, 0x0001 Items, ...) -- CPU_ReadMem(4 bytes @ 0xE0001028) - Data: 00 00 00 00  returns 0x01 (0000ms, 0698ms total)
T4A20 010:332 JLINK_ReadMemU32(0xE0001038, 0x0001 Items, ...) -- CPU_ReadMem(4 bytes @ 0xE0001038) - Data: 00 02 00 00  returns 0x01 (0001ms, 0699ms total)
T4A20 010:333 JLINK_ReadMemU32(0xE0001048, 0x0001 Items, ...) -- CPU_ReadMem(4 bytes @ 0xE0001048) - Data: 00 00 00 00  returns 0x01 (0001ms, 0700ms total)
T4A20 010:334 JLINK_ReadMemU32(0xE0001058, 0x0001 Items, ...) -- CPU_ReadMem(4 bytes @ 0xE0001058) - Data: 00 00 00 00  returns 0x01 (0000ms, 0700ms total)
T4A20 010:334 JLINK_ReadReg(R0)  returns 0x00000004 (0000ms, 0700ms total)
T4A20 010:334 JLINK_ReadReg(R1)  returns 0x20000060 (0001ms, 0701ms total)
T4A20 010:335 JLINK_ReadReg(R2)  returns 0x00000000 (0000ms, 0701ms total)
T4A20 010:335 JLINK_ReadReg(R3)  returns 0xE000E000 (0000ms, 0701ms total)
T4A20 010:335 JLINK_ReadReg(R4)  returns 0x080011A0 (0000ms, 0701ms total)
T4A20 010:335 JLINK_ReadReg(R5)  returns 0x080011A0 (0000ms, 0701ms total)
T4A20 010:335 JLINK_ReadReg(R6)  returns 0x00000000 (0000ms, 0701ms total)
T4A20 010:335 JLINK_ReadReg(R7)  returns 0x00000000 (0000ms, 0701ms total)
T4A20 010:335 JLINK_ReadReg(R8)  returns 0x00000000 (0000ms, 0701ms total)
T4A20 010:335 JLINK_ReadReg(R9)  returns 0x20000160 (0000ms, 0701ms total)
T4A20 010:335 JLINK_ReadReg(R10)  returns 0x00000000 (0000ms, 0701ms total)
T4A20 010:335 JLINK_ReadReg(R11)  returns 0x00000000 (0000ms, 0701ms total)
T4A20 010:335 JLINK_ReadReg(R12)  returns 0x000000E0 (0000ms, 0701ms total)
T4A20 010:335 JLINK_ReadReg(R13 (SP))  returns 0x20000518 (0000ms, 0701ms total)
T4A20 010:335 JLINK_ReadReg(R14)  returns 0x08000FC3 (0000ms, 0701ms total)
T4A20 010:335 JLINK_ReadReg(R15 (PC))  returns 0x08000D6C (0000ms, 0701ms total)
T4A20 010:335 JLINK_ReadReg(XPSR)  returns 0x01000000 (0000ms, 0701ms total)
T4A20 010:335 JLINK_ReadReg(MSP)  returns 0x20000518 (0000ms, 0701ms total)
T4A20 010:335 JLINK_ReadReg(PSP)  returns 0x20001000 (0000ms, 0701ms total)
T4A20 010:335 JLINK_ReadReg(CFBP)  returns 0x00000000 (0000ms, 0701ms total)
T3884 010:337 JLINK_ReadMemU32(0xE0001004, 0x0001 Items, ...) -- CPU_ReadMem(4 bytes @ 0xE0001004) - Data: 99 97 4D 0A  returns 0x01 (0001ms, 0702ms total)
T4A20 011:458 JLINK_ReadMem (0x08000D6C, 0x003C Bytes, ...) -- CPU_ReadMem(128 bytes @ 0x08000D40) -- Updating C cache (128 bytes @ 0x08000D40) -- Read from C cache (60 bytes @ 0x08000D6C) - Data: 00 28 FA D0 FF F7 9E FE FF F7 E0 FC FF 20 80 49 ...  returns 0x00 (0002ms, 0704ms total)
T4A20 011:460 JLINK_Step() -- Read from C cache (2 bytes @ 0x08000D6C) -- Simulated  returns 0x00 (0000ms, 0704ms total)
T4A20 011:460 JLINK_ReadReg(R15 (PC))  returns 0x08000D6E (0000ms, 0704ms total)
T4A20 011:460 JLINK_ReadReg(XPSR)  returns 0x21000000 (0000ms, 0704ms total)
T4A20 011:460 JLINK_Step() -- Read from C cache (2 bytes @ 0x08000D6E) -- Simulated  returns 0x00 (0000ms, 0704ms total)
T4A20 011:460 JLINK_ReadReg(R15 (PC))  returns 0x08000D70 (0000ms, 0704ms total)
T4A20 011:460 JLINK_ReadReg(XPSR)  returns 0x21000000 (0000ms, 0704ms total)
T4A20 011:460 JLINK_ReadReg(R0)  returns 0x00000004 (0000ms, 0704ms total)
T4A20 011:460 JLINK_ReadReg(R1)  returns 0x20000060 (0000ms, 0704ms total)
T4A20 011:460 JLINK_ReadReg(R2)  returns 0x00000000 (0000ms, 0704ms total)
T4A20 011:460 JLINK_ReadReg(R3)  returns 0xE000E000 (0000ms, 0704ms total)
T4A20 011:460 JLINK_ReadReg(R4)  returns 0x080011A0 (0000ms, 0704ms total)
T4A20 011:460 JLINK_ReadReg(R5)  returns 0x080011A0 (0000ms, 0704ms total)
T4A20 011:460 JLINK_ReadReg(R6)  returns 0x00000000 (0000ms, 0704ms total)
T4A20 011:460 JLINK_ReadReg(R7)  returns 0x00000000 (0000ms, 0704ms total)
T4A20 011:460 JLINK_ReadReg(R8)  returns 0x00000000 (0000ms, 0704ms total)
T4A20 011:460 JLINK_ReadReg(R9)  returns 0x20000160 (0000ms, 0704ms total)
T4A20 011:460 JLINK_ReadReg(R10)  returns 0x00000000 (0000ms, 0704ms total)
T4A20 011:460 JLINK_ReadReg(R11)  returns 0x00000000 (0000ms, 0704ms total)
T4A20 011:460 JLINK_ReadReg(R12)  returns 0x000000E0 (0000ms, 0704ms total)
T4A20 011:460 JLINK_ReadReg(R13 (SP))  returns 0x20000518 (0001ms, 0705ms total)
T4A20 011:461 JLINK_ReadReg(R14)  returns 0x08000FC3 (0000ms, 0705ms total)
T4A20 011:461 JLINK_ReadReg(R15 (PC))  returns 0x08000D70 (0000ms, 0705ms total)
T4A20 011:461 JLINK_ReadReg(XPSR)  returns 0x21000000 (0000ms, 0705ms total)
T4A20 011:461 JLINK_ReadReg(MSP)  returns 0x20000518 (0000ms, 0705ms total)
T4A20 011:461 JLINK_ReadReg(PSP)  returns 0x20001000 (0000ms, 0705ms total)
T4A20 011:461 JLINK_ReadReg(CFBP)  returns 0x00000000 (0000ms, 0705ms total)
T3884 011:465 JLINK_ReadMemU32(0xE0001004, 0x0001 Items, ...) - Data: 99 97 4D 0A  returns 0x01 (0000ms, 0705ms total)
T3884 011:470 JLINK_ReadMem (0x08000D70, 0x003C Bytes, ...) -- Read from C cache (60 bytes @ 0x08000D70) - Data: FF F7 9E FE FF F7 E0 FC FF 20 80 49 08 70 FC E0 ...  returns 0x00 (0000ms, 0705ms total)
T4A20 011:867 JLINK_SetBPEx(Addr = 0x08000D74, Type = 0xFFFFFFF2)  returns 0x00000006 (0000ms, 0705ms total)
T4A20 011:867 JLINK_Go() -- CPU_WriteMem(4 bytes @ 0xE0002000) -- CPU_WriteMem(4 bytes @ 0xE0002008) -- CPU_WriteMem(4 bytes @ 0xE0001004) (0003ms, 0708ms total)
T4A20 011:971 JLINK_IsHalted()  returns FALSE (0001ms, 0709ms total)
T4A20 012:073 JLINK_IsHalted()  returns TRUE (0003ms, 0711ms total)
T4A20 012:076 JLINK_Halt()  returns 0x00 (0000ms, 0708ms total)
T4A20 012:076 JLINK_IsHalted()  returns TRUE (0000ms, 0708ms total)
T4A20 012:076 JLINK_IsHalted()  returns TRUE (0000ms, 0708ms total)
T4A20 012:076 JLINK_IsHalted()  returns TRUE (0000ms, 0708ms total)
T4A20 012:076 JLINK_ReadReg(R15 (PC))  returns 0x08000D74 (0000ms, 0708ms total)
T4A20 012:076 JLINK_ReadReg(XPSR)  returns 0x61000000 (0000ms, 0708ms total)
T4A20 012:076 JLINK_ClrBPEx(BPHandle = 0x00000006)  returns 0x00 (0000ms, 0708ms total)
T4A20 012:076 JLINK_ReadMemU32(0xE000ED30, 0x0001 Items, ...) -- CPU_ReadMem(4 bytes @ 0xE000ED30) - Data: 03 00 00 00  returns 0x01 (0001ms, 0709ms total)
T4A20 012:077 JLINK_ReadMemU32(0xE0001028, 0x0001 Items, ...) -- CPU_ReadMem(4 bytes @ 0xE0001028) - Data: 00 00 00 00  returns 0x01 (0001ms, 0710ms total)
T4A20 012:078 JLINK_ReadMemU32(0xE0001038, 0x0001 Items, ...) -- CPU_ReadMem(4 bytes @ 0xE0001038) - Data: 00 02 00 00  returns 0x01 (0001ms, 0711ms total)
T4A20 012:079 JLINK_ReadMemU32(0xE0001048, 0x0001 Items, ...) -- CPU_ReadMem(4 bytes @ 0xE0001048) - Data: 00 00 00 00  returns 0x01 (0001ms, 0712ms total)
T4A20 012:080 JLINK_ReadMemU32(0xE0001058, 0x0001 Items, ...) -- CPU_ReadMem(4 bytes @ 0xE0001058) - Data: 00 00 00 00  returns 0x01 (0001ms, 0713ms total)
T4A20 012:081 JLINK_ReadReg(R0)  returns 0x00010001 (0000ms, 0713ms total)
T4A20 012:081 JLINK_ReadReg(R1)  returns 0x0000000A (0000ms, 0713ms total)
T4A20 012:081 JLINK_ReadReg(R2)  returns 0x00000000 (0000ms, 0713ms total)
T4A20 012:081 JLINK_ReadReg(R3)  returns 0xE000E000 (0000ms, 0713ms total)
T4A20 012:081 JLINK_ReadReg(R4)  returns 0x080011A0 (0000ms, 0713ms total)
T4A20 012:081 JLINK_ReadReg(R5)  returns 0x080011A0 (0000ms, 0713ms total)
T4A20 012:081 JLINK_ReadReg(R6)  returns 0x00000000 (0000ms, 0713ms total)
T4A20 012:081 JLINK_ReadReg(R7)  returns 0x00000000 (0000ms, 0713ms total)
T4A20 012:081 JLINK_ReadReg(R8)  returns 0x00000000 (0000ms, 0713ms total)
T4A20 012:081 JLINK_ReadReg(R9)  returns 0x20000160 (0000ms, 0713ms total)
T4A20 012:081 JLINK_ReadReg(R10)  returns 0x00000000 (0000ms, 0713ms total)
T4A20 012:081 JLINK_ReadReg(R11)  returns 0x00000000 (0000ms, 0713ms total)
T4A20 012:081 JLINK_ReadReg(R12)  returns 0x000000E0 (0000ms, 0713ms total)
T4A20 012:081 JLINK_ReadReg(R13 (SP))  returns 0x20000518 (0000ms, 0713ms total)
T4A20 012:081 JLINK_ReadReg(R14)  returns 0x08000FC3 (0000ms, 0713ms total)
T4A20 012:081 JLINK_ReadReg(R15 (PC))  returns 0x08000D74 (0000ms, 0713ms total)
T4A20 012:081 JLINK_ReadReg(XPSR)  returns 0x61000000 (0000ms, 0713ms total)
T4A20 012:081 JLINK_ReadReg(MSP)  returns 0x20000518 (0000ms, 0713ms total)
T4A20 012:081 JLINK_ReadReg(PSP)  returns 0x20001000 (0000ms, 0713ms total)
T4A20 012:081 JLINK_ReadReg(CFBP)  returns 0x00000000 (0000ms, 0713ms total)
T3884 012:086 JLINK_ReadMemU32(0xE0001004, 0x0001 Items, ...) -- CPU_ReadMem(4 bytes @ 0xE0001004) - Data: 38 DD DE 0A  returns 0x01 (0000ms, 0713ms total)
T3884 012:095 JLINK_ReadMem (0x08000D70, 0x003C Bytes, ...) -- CPU_ReadMem(128 bytes @ 0x08000D40) -- Updating C cache (128 bytes @ 0x08000D40) -- Read from C cache (60 bytes @ 0x08000D70) - Data: FF F7 9E FE FF F7 E0 FC FF 20 80 49 08 70 FC E0 ...  returns 0x00 (0002ms, 0715ms total)
T4A20 012:601 JLINK_SetBPEx(Addr = 0x08000D78, Type = 0xFFFFFFF2)  returns 0x00000007 (0000ms, 0715ms total)
T4A20 012:601 JLINK_Go() -- CPU_WriteMem(4 bytes @ 0xE0002000) -- CPU_WriteMem(4 bytes @ 0xE0002008) (0003ms, 0718ms total)
T4A20 012:705 JLINK_IsHalted()  returns TRUE (0004ms, 0722ms total)
T4A20 012:709 JLINK_Halt()  returns 0x00 (0000ms, 0718ms total)
T4A20 012:709 JLINK_IsHalted()  returns TRUE (0000ms, 0718ms total)
T4A20 012:709 JLINK_IsHalted()  returns TRUE (0000ms, 0718ms total)
T4A20 012:709 JLINK_IsHalted()  returns TRUE (0000ms, 0718ms total)
T4A20 012:709 JLINK_ReadReg(R15 (PC))  returns 0x08000D78 (0000ms, 0718ms total)
T4A20 012:709 JLINK_ReadReg(XPSR)  returns 0x01000000 (0000ms, 0718ms total)
T4A20 012:709 JLINK_ClrBPEx(BPHandle = 0x00000007)  returns 0x00 (0000ms, 0718ms total)
T4A20 012:709 JLINK_ReadMemU32(0xE000ED30, 0x0001 Items, ...) -- CPU_ReadMem(4 bytes @ 0xE000ED30) - Data: 03 00 00 00  returns 0x01 (0001ms, 0719ms total)
T4A20 012:710 JLINK_ReadMemU32(0xE0001028, 0x0001 Items, ...) -- CPU_ReadMem(4 bytes @ 0xE0001028) - Data: 00 00 00 00  returns 0x01 (0000ms, 0719ms total)
T4A20 012:710 JLINK_ReadMemU32(0xE0001038, 0x0001 Items, ...) -- CPU_ReadMem(4 bytes @ 0xE0001038) - Data: 00 02 00 00  returns 0x01 (0001ms, 0720ms total)
T4A20 012:711 JLINK_ReadMemU32(0xE0001048, 0x0001 Items, ...) -- CPU_ReadMem(4 bytes @ 0xE0001048) - Data: 00 00 00 00  returns 0x01 (0001ms, 0721ms total)
T4A20 012:712 JLINK_ReadMemU32(0xE0001058, 0x0001 Items, ...) -- CPU_ReadMem(4 bytes @ 0xE0001058) - Data: 00 00 00 00  returns 0x01 (0000ms, 0721ms total)
T4A20 012:712 JLINK_ReadReg(R0)  returns 0x0100001D (0000ms, 0721ms total)
T4A20 012:712 JLINK_ReadReg(R1)  returns 0x00000047 (0000ms, 0721ms total)
T4A20 012:712 JLINK_ReadReg(R2)  returns 0x000003E7 (0000ms, 0721ms total)
T4A20 012:712 JLINK_ReadReg(R3)  returns 0xE000E000 (0000ms, 0721ms total)
T4A20 012:712 JLINK_ReadReg(R4)  returns 0x080011A0 (0000ms, 0721ms total)
T4A20 012:712 JLINK_ReadReg(R5)  returns 0x080011A0 (0000ms, 0721ms total)
T4A20 012:712 JLINK_ReadReg(R6)  returns 0x00000000 (0000ms, 0721ms total)
T4A20 012:712 JLINK_ReadReg(R7)  returns 0x00000000 (0000ms, 0721ms total)
T4A20 012:712 JLINK_ReadReg(R8)  returns 0x00000000 (0000ms, 0721ms total)
T4A20 012:712 JLINK_ReadReg(R9)  returns 0x20000160 (0000ms, 0721ms total)
T4A20 012:712 JLINK_ReadReg(R10)  returns 0x00000000 (0000ms, 0721ms total)
T4A20 012:712 JLINK_ReadReg(R11)  returns 0x00000000 (0000ms, 0721ms total)
T4A20 012:712 JLINK_ReadReg(R12)  returns 0x000000E0 (0000ms, 0721ms total)
T4A20 012:712 JLINK_ReadReg(R13 (SP))  returns 0x20000518 (0000ms, 0721ms total)
T4A20 012:712 JLINK_ReadReg(R14)  returns 0x08000791 (0000ms, 0721ms total)
T4A20 012:712 JLINK_ReadReg(R15 (PC))  returns 0x08000D78 (0000ms, 0721ms total)
T4A20 012:712 JLINK_ReadReg(XPSR)  returns 0x01000000 (0000ms, 0721ms total)
T4A20 012:712 JLINK_ReadReg(MSP)  returns 0x20000518 (0000ms, 0721ms total)
T4A20 012:712 JLINK_ReadReg(PSP)  returns 0x20001000 (0000ms, 0721ms total)
T4A20 012:712 JLINK_ReadReg(CFBP)  returns 0x00000000 (0000ms, 0721ms total)
T3884 012:715 JLINK_ReadMemU32(0xE0001004, 0x0001 Items, ...) -- CPU_ReadMem(4 bytes @ 0xE0001004) - Data: 99 DF DE 0A  returns 0x01 (0001ms, 0722ms total)
T3884 012:720 JLINK_ReadMem (0x08000D78, 0x003C Bytes, ...) -- CPU_ReadMem(128 bytes @ 0x08000D40) -- Updating C cache (128 bytes @ 0x08000D40) -- Read from C cache (60 bytes @ 0x08000D78) - Data: FF 20 80 49 08 70 FC E0 7F 48 FF F7 F5 FD 7E 48 ...  returns 0x00 (0002ms, 0724ms total)
T4A20 013:177 JLINK_Step() -- Read from C cache (2 bytes @ 0x08000D78) -- Simulated  returns 0x00 (0000ms, 0724ms total)
T4A20 013:177 JLINK_ReadReg(R15 (PC))  returns 0x08000D7A (0000ms, 0724ms total)
T4A20 013:177 JLINK_ReadReg(XPSR)  returns 0x01000000 (0000ms, 0724ms total)
T4A20 013:177 JLINK_Step() -- Read from C cache (2 bytes @ 0x08000D7A) -- CPU_ReadMem(64 bytes @ 0x08000F40) -- Updating C cache (64 bytes @ 0x08000F40) -- Read from C cache (4 bytes @ 0x08000F7C) -- Simulated  returns 0x00 (0002ms, 0726ms total)
T4A20 013:179 JLINK_ReadReg(R15 (PC))  returns 0x08000D7C (0000ms, 0726ms total)
T4A20 013:179 JLINK_ReadReg(XPSR)  returns 0x01000000 (0000ms, 0726ms total)
T4A20 013:179 JLINK_Step() -- Read from C cache (2 bytes @ 0x08000D7C) -- CPU_WriteMem(1 bytes @ 0x20000027) -- Simulated  returns 0x00 (0000ms, 0726ms total)
T4A20 013:179 JLINK_ReadReg(R15 (PC))  returns 0x08000D7E (0000ms, 0726ms total)
T4A20 013:179 JLINK_ReadReg(XPSR)  returns 0x01000000 (0000ms, 0726ms total)
T4A20 013:179 JLINK_ReadReg(R0)  returns 0x000000FF (0000ms, 0726ms total)
T4A20 013:179 JLINK_ReadReg(R1)  returns 0x20000027 (0000ms, 0726ms total)
T4A20 013:179 JLINK_ReadReg(R2)  returns 0x000003E7 (0000ms, 0726ms total)
T4A20 013:179 JLINK_ReadReg(R3)  returns 0xE000E000 (0000ms, 0726ms total)
T4A20 013:179 JLINK_ReadReg(R4)  returns 0x080011A0 (0000ms, 0726ms total)
T4A20 013:179 JLINK_ReadReg(R5)  returns 0x080011A0 (0001ms, 0727ms total)
T4A20 013:180 JLINK_ReadReg(R6)  returns 0x00000000 (0000ms, 0727ms total)
T4A20 013:180 JLINK_ReadReg(R7)  returns 0x00000000 (0000ms, 0727ms total)
T4A20 013:180 JLINK_ReadReg(R8)  returns 0x00000000 (0000ms, 0727ms total)
T4A20 013:180 JLINK_ReadReg(R9)  returns 0x20000160 (0000ms, 0727ms total)
T4A20 013:180 JLINK_ReadReg(R10)  returns 0x00000000 (0000ms, 0727ms total)
T4A20 013:180 JLINK_ReadReg(R11)  returns 0x00000000 (0000ms, 0727ms total)
T4A20 013:180 JLINK_ReadReg(R12)  returns 0x000000E0 (0000ms, 0727ms total)
T4A20 013:180 JLINK_ReadReg(R13 (SP))  returns 0x20000518 (0000ms, 0727ms total)
T4A20 013:180 JLINK_ReadReg(R14)  returns 0x08000791 (0000ms, 0727ms total)
T4A20 013:180 JLINK_ReadReg(R15 (PC))  returns 0x08000D7E (0000ms, 0727ms total)
T4A20 013:180 JLINK_ReadReg(XPSR)  returns 0x01000000 (0000ms, 0727ms total)
T4A20 013:180 JLINK_ReadReg(MSP)  returns 0x20000518 (0000ms, 0727ms total)
T4A20 013:180 JLINK_ReadReg(PSP)  returns 0x20001000 (0000ms, 0727ms total)
T4A20 013:180 JLINK_ReadReg(CFBP)  returns 0x00000000 (0000ms, 0727ms total)
T3884 013:186 JLINK_ReadMemU32(0xE0001004, 0x0001 Items, ...) - Data: 99 DF DE 0A  returns 0x01 (0000ms, 0727ms total)
T3884 013:191 JLINK_ReadMem (0x08000D7E, 0x0002 Bytes, ...) -- Read from C cache (2 bytes @ 0x08000D7E) - Data: FC E0  returns 0x00 (0000ms, 0727ms total)
T3884 013:191 JLINK_ReadMem (0x08000D80, 0x003C Bytes, ...) -- Read from C cache (60 bytes @ 0x08000D80) - Data: 7F 48 FF F7 F5 FD 7E 48 80 1D FF F7 CF FF 7D 49 ...  returns 0x00 (0000ms, 0727ms total)
T4A20 013:593 JLINK_Step() -- Read from C cache (2 bytes @ 0x08000D7E) -- Simulated  returns 0x00 (0000ms, 0727ms total)
T4A20 013:593 JLINK_ReadReg(R15 (PC))  returns 0x08000F7A (0000ms, 0727ms total)
T4A20 013:593 JLINK_ReadReg(XPSR)  returns 0x01000000 (0000ms, 0727ms total)
T4A20 013:593 JLINK_ReadReg(R0)  returns 0x000000FF (0000ms, 0727ms total)
T4A20 013:593 JLINK_ReadReg(R1)  returns 0x20000027 (0000ms, 0727ms total)
T4A20 013:593 JLINK_ReadReg(R2)  returns 0x000003E7 (0000ms, 0727ms total)
T4A20 013:593 JLINK_ReadReg(R3)  returns 0xE000E000 (0000ms, 0727ms total)
T4A20 013:593 JLINK_ReadReg(R4)  returns 0x080011A0 (0000ms, 0727ms total)
T4A20 013:593 JLINK_ReadReg(R5)  returns 0x080011A0 (0000ms, 0727ms total)
T4A20 013:593 JLINK_ReadReg(R6)  returns 0x00000000 (0000ms, 0727ms total)
T4A20 013:593 JLINK_ReadReg(R7)  returns 0x00000000 (0000ms, 0727ms total)
T4A20 013:593 JLINK_ReadReg(R8)  returns 0x00000000 (0000ms, 0727ms total)
T4A20 013:593 JLINK_ReadReg(R9)  returns 0x20000160 (0000ms, 0727ms total)
T4A20 013:593 JLINK_ReadReg(R10)  returns 0x00000000 (0000ms, 0727ms total)
T4A20 013:593 JLINK_ReadReg(R11)  returns 0x00000000 (0001ms, 0728ms total)
T4A20 013:594 JLINK_ReadReg(R12)  returns 0x000000E0 (0000ms, 0728ms total)
T4A20 013:594 JLINK_ReadReg(R13 (SP))  returns 0x20000518 (0000ms, 0728ms total)
T4A20 013:594 JLINK_ReadReg(R14)  returns 0x08000791 (0000ms, 0728ms total)
